# GHZ S RI R 50.00000
1.00000000 -0.01282 -0.01802 -0.87286 0.414743 -0.87286 0.414743 -0.01354 -0.01766
1.10000000 -0.02476 -0.01440 -0.65847 0.702008 -0.65847 0.702008 -0.02540 -0.01369
1.20000000 -0.03454 -4.82e-3 -0.35048 0.892081 -0.35048 0.892081 -0.03492 -3.81e-3
1.30000000 -0.03970 0.009182 0.010563 0.954144 0.010563 0.954144 -0.03967 0.010383
1.40000000 -0.03952 0.025933 0.373571 0.873015 0.373571 0.873015 -0.03901 0.027113
1.50000000 -0.03401 0.045917 0.682302 0.652812 0.682302 0.652812 -0.03307 0.046823
1.60000000 -0.01979 0.072669 0.881675 0.319141 0.881675 0.319141 -0.01868 0.073104
1.70000000 0.015684 0.108315 0.924520 -0.07971 0.924520 -0.07971 0.016537 0.108321
1.80000000 0.095448 0.140274 0.780017 -0.47053 0.780017 -0.47053 0.095623 0.140366
1.90000000 0.236032 0.122594 0.452022 -0.75217 0.452022 -0.75217 0.235657 0.123829
2.00000000 0.399431 -0.01943 0.018782 -0.81317 0.018782 -0.81317 0.399875 -0.01607
2.10000000 0.459219 -0.30800 -0.34642 -0.61786 -0.34642 -0.61786 0.462851 -0.30309
2.20000000 0.305184 -0.61964 -0.49127 -0.29651 -0.49127 -0.29651 0.313309 -0.61590
2.30000000 -0.01005 -0.79035 -0.43805 -0.03334 -0.43805 -0.03334 0.001377 -0.79066
2.40000000 -0.34721 -0.77946 -0.30961 0.105677 -0.30961 0.105677 -0.33497 -0.78502
2.50000000 -0.61820 -0.64199 -0.18937 0.151878 -0.18937 0.151878 -0.60740 -0.65247
2.60000000 -0.79956 -0.44327 -0.10101 0.149781 -0.10101 0.149781 -0.79143 -0.45783
2.70000000 -0.90163 -0.22509 -0.04455 0.130038 -0.04455 0.130038 -0.89727 -0.24242
2.80000000 -0.93905 -0.01170 -9.56e-3 0.106457 -9.56e-3 0.106457 -0.93888 -0.03090
2.90000000 -0.93029 0.181961 0.008304 0.081543 0.008304 0.081543 -0.93383 0.162404
3.00000000 -0.88437 0.355638 0.019277 0.062812 0.019277 0.062812 -0.89205 0.336012
